Vin 	 Vout 	 Ids
0 	 0 	 0
0 	 0.1 	 0
0 	 0.2 	 0
0 	 0.3 	 0
0 	 0.4 	 0
0 	 0.5 	 0
0 	 0.6 	 0
0 	 0.7 	 0
0 	 0.8 	 0
0 	 0.9 	 0
0 	 1 	 0
0 	 1.1 	 0
0 	 1.2 	 0
0 	 1.3 	 0
0 	 1.4 	 0
0 	 1.5 	 0
0 	 1.6 	 0
0 	 1.7 	 0
0.1 	 0 	 0
0.1 	 0.1 	 0
0.1 	 0.2 	 0
0.1 	 0.3 	 0
0.1 	 0.4 	 0
0.1 	 0.5 	 0
0.1 	 0.6 	 0
0.1 	 0.7 	 0
0.1 	 0.8 	 0
0.1 	 0.9 	 0
0.1 	 1 	 0
0.1 	 1.1 	 0
0.1 	 1.2 	 0
0.1 	 1.3 	 0
0.1 	 1.4 	 0
0.1 	 1.5 	 0
0.1 	 1.6 	 0
0.1 	 1.7 	 0
0.2 	 0 	 0
0.2 	 0.1 	 0
0.2 	 0.2 	 0
0.2 	 0.3 	 0
0.2 	 0.4 	 0
0.2 	 0.5 	 0
0.2 	 0.6 	 0
0.2 	 0.7 	 0
0.2 	 0.8 	 0
0.2 	 0.9 	 0
0.2 	 1 	 0
0.2 	 1.1 	 0
0.2 	 1.2 	 0
0.2 	 1.3 	 0
0.2 	 1.4 	 0
0.2 	 1.5 	 0
0.2 	 1.6 	 0
0.2 	 1.7 	 0
0.3 	 0 	 0
0.3 	 0.1 	 0
0.3 	 0.2 	 0
0.3 	 0.3 	 0
0.3 	 0.4 	 0
0.3 	 0.5 	 0
0.3 	 0.6 	 0
0.3 	 0.7 	 0
0.3 	 0.8 	 0
0.3 	 0.9 	 0
0.3 	 1 	 0
0.3 	 1.1 	 0
0.3 	 1.2 	 0
0.3 	 1.3 	 0
0.3 	 1.4 	 0
0.3 	 1.5 	 0
0.3 	 1.6 	 0
0.3 	 1.7 	 0
0.4 	 0 	 0
0.4 	 0.1 	 0
0.4 	 0.2 	 0
0.4 	 0.3 	 0
0.4 	 0.4 	 0
0.4 	 0.5 	 0
0.4 	 0.6 	 0
0.4 	 0.7 	 0
0.4 	 0.8 	 0
0.4 	 0.9 	 0
0.4 	 1 	 0
0.4 	 1.1 	 0
0.4 	 1.2 	 0
0.4 	 1.3 	 0
0.4 	 1.4 	 0
0.4 	 1.5 	 0
0.4 	 1.6 	 0
0.4 	 1.7 	 0
0.5 	 0 	 0
0.5 	 0.1 	 1.725
0.5 	 0.2 	 1.725
0.5 	 0.3 	 1.725
0.5 	 0.4 	 1.725
0.5 	 0.5 	 1.725
0.5 	 0.6 	 1.725
0.5 	 0.7 	 1.725
0.5 	 0.8 	 1.725
0.5 	 0.9 	 1.725
0.5 	 1 	 1.725
0.5 	 1.1 	 1.725
0.5 	 1.2 	 1.725
0.5 	 1.3 	 1.725
0.5 	 1.4 	 1.725
0.5 	 1.5 	 1.725
0.5 	 1.6 	 1.725
0.5 	 1.7 	 1.725
0.6 	 0 	 0
0.6 	 0.1 	 5.175
0.6 	 0.2 	 6.9
0.6 	 0.3 	 6.9
0.6 	 0.4 	 6.9
0.6 	 0.5 	 6.9
0.6 	 0.6 	 6.9
0.6 	 0.7 	 6.9
0.6 	 0.8 	 6.9
0.6 	 0.9 	 6.9
0.6 	 1 	 6.9
0.6 	 1.1 	 6.9
0.6 	 1.2 	 6.9
0.6 	 1.3 	 6.9
0.6 	 1.4 	 6.9
0.6 	 1.5 	 6.9
0.6 	 1.6 	 6.9
0.6 	 1.7 	 6.9
0.7 	 0 	 0
0.7 	 0.1 	 8.625
0.7 	 0.2 	 13.8
0.7 	 0.3 	 15.525
0.7 	 0.4 	 15.525
0.7 	 0.5 	 15.525
0.7 	 0.6 	 15.525
0.7 	 0.7 	 15.525
0.7 	 0.8 	 15.525
0.7 	 0.9 	 15.525
0.7 	 1 	 15.525
0.7 	 1.1 	 15.525
0.7 	 1.2 	 15.525
0.7 	 1.3 	 15.525
0.7 	 1.4 	 15.525
0.7 	 1.5 	 15.525
0.7 	 1.6 	 15.525
0.7 	 1.7 	 15.525
0.8 	 0 	 0
0.8 	 0.1 	 12.075
0.8 	 0.2 	 20.7
0.8 	 0.3 	 25.875
0.8 	 0.4 	 27.6
0.8 	 0.5 	 27.6
0.8 	 0.6 	 27.6
0.8 	 0.7 	 27.6
0.8 	 0.8 	 27.6
0.8 	 0.9 	 27.6
0.8 	 1 	 27.6
0.8 	 1.1 	 27.6
0.8 	 1.2 	 27.6
0.8 	 1.3 	 27.6
0.8 	 1.4 	 27.6
0.8 	 1.5 	 27.6
0.8 	 1.6 	 27.6
0.8 	 1.7 	 27.6
0.9 	 0 	 0
0.9 	 0.1 	 15.525
0.9 	 0.2 	 27.6
0.9 	 0.3 	 36.225
0.9 	 0.4 	 41.4
0.9 	 0.5 	 43.125
0.9 	 0.6 	 43.125
0.9 	 0.7 	 43.125
0.9 	 0.8 	 43.125
0.9 	 0.9 	 43.125
0.9 	 1 	 43.125
0.9 	 1.1 	 43.125
0.9 	 1.2 	 43.125
0.9 	 1.3 	 43.125
0.9 	 1.4 	 43.125
0.9 	 1.5 	 43.125
0.9 	 1.6 	 43.125
0.9 	 1.7 	 43.125
1 	 0 	 0
1 	 0.1 	 18.975
1 	 0.2 	 34.5
1 	 0.3 	 46.575
1 	 0.4 	 55.2
1 	 0.5 	 60.375
1 	 0.6 	 62.1
1 	 0.7 	 62.1
1 	 0.8 	 62.1
1 	 0.9 	 62.1
1 	 1 	 62.1
1 	 1.1 	 62.1
1 	 1.2 	 62.1
1 	 1.3 	 62.1
1 	 1.4 	 62.1
1 	 1.5 	 62.1
1 	 1.6 	 62.1
1 	 1.7 	 62.1
1.1 	 0 	 0
1.1 	 0.1 	 22.425
1.1 	 0.2 	 41.4
1.1 	 0.3 	 56.925
1.1 	 0.4 	 69
1.1 	 0.5 	 77.625
1.1 	 0.6 	 82.8
1.1 	 0.7 	 84.525
1.1 	 0.8 	 84.525
1.1 	 0.9 	 84.525
1.1 	 1 	 84.525
1.1 	 1.1 	 84.525
1.1 	 1.2 	 84.525
1.1 	 1.3 	 84.525
1.1 	 1.4 	 84.525
1.1 	 1.5 	 84.525
1.1 	 1.6 	 84.525
1.1 	 1.7 	 84.525
1.2 	 0 	 0
1.2 	 0.1 	 25.875
1.2 	 0.2 	 48.3
1.2 	 0.3 	 67.275
1.2 	 0.4 	 82.8
1.2 	 0.5 	 94.875
1.2 	 0.6 	 103.5
1.2 	 0.7 	 108.675
1.2 	 0.8 	 110.4
1.2 	 0.9 	 110.4
1.2 	 1 	 110.4
1.2 	 1.1 	 110.4
1.2 	 1.2 	 110.4
1.2 	 1.3 	 110.4
1.2 	 1.4 	 110.4
1.2 	 1.5 	 110.4
1.2 	 1.6 	 110.4
1.2 	 1.7 	 110.4
1.3 	 0 	 0
1.3 	 0.1 	 29.325
1.3 	 0.2 	 55.2
1.3 	 0.3 	 77.625
1.3 	 0.4 	 96.6
1.3 	 0.5 	 112.125
1.3 	 0.6 	 124.2
1.3 	 0.7 	 132.825
1.3 	 0.8 	 138
1.3 	 0.9 	 139.725
1.3 	 1 	 139.725
1.3 	 1.1 	 139.725
1.3 	 1.2 	 139.725
1.3 	 1.3 	 139.725
1.3 	 1.4 	 139.725
1.3 	 1.5 	 139.725
1.3 	 1.6 	 139.725
1.3 	 1.7 	 139.725
1.4 	 0 	 0
1.4 	 0.1 	 32.775
1.4 	 0.2 	 62.1
1.4 	 0.3 	 87.975
1.4 	 0.4 	 110.4
1.4 	 0.5 	 129.375
1.4 	 0.6 	 144.9
1.4 	 0.7 	 156.975
1.4 	 0.8 	 165.6
1.4 	 0.9 	 170.775
1.4 	 1 	 172.5
1.4 	 1.1 	 172.5
1.4 	 1.2 	 172.5
1.4 	 1.3 	 172.5
1.4 	 1.4 	 172.5
1.4 	 1.5 	 172.5
1.4 	 1.6 	 172.5
1.4 	 1.7 	 172.5
1.5 	 0 	 0
1.5 	 0.1 	 36.225
1.5 	 0.2 	 69
1.5 	 0.3 	 98.325
1.5 	 0.4 	 124.2
1.5 	 0.5 	 146.625
1.5 	 0.6 	 165.6
1.5 	 0.7 	 181.125
1.5 	 0.8 	 193.2
1.5 	 0.9 	 201.825
1.5 	 1 	 207
1.5 	 1.1 	 208.725
1.5 	 1.2 	 208.725
1.5 	 1.3 	 208.725
1.5 	 1.4 	 208.725
1.5 	 1.5 	 208.725
1.5 	 1.6 	 208.725
1.5 	 1.7 	 208.725
1.6 	 0 	 0
1.6 	 0.1 	 39.675
1.6 	 0.2 	 75.9
1.6 	 0.3 	 108.675
1.6 	 0.4 	 138
1.6 	 0.5 	 163.875
1.6 	 0.6 	 186.3
1.6 	 0.7 	 205.275
1.6 	 0.8 	 220.8
1.6 	 0.9 	 232.875
1.6 	 1 	 241.5
1.6 	 1.1 	 246.675
1.6 	 1.2 	 248.4
1.6 	 1.3 	 248.4
1.6 	 1.4 	 248.4
1.6 	 1.5 	 248.4
1.6 	 1.6 	 248.4
1.6 	 1.7 	 248.4
1.7 	 0 	 0
1.7 	 0.1 	 43.125
1.7 	 0.2 	 82.8
1.7 	 0.3 	 119.025
1.7 	 0.4 	 151.8
1.7 	 0.5 	 181.125
1.7 	 0.6 	 207
1.7 	 0.7 	 229.425
1.7 	 0.8 	 248.4
1.7 	 0.9 	 263.925
1.7 	 1 	 276
1.7 	 1.1 	 284.625
1.7 	 1.2 	 289.8
1.7 	 1.3 	 291.525
1.7 	 1.4 	 291.525
1.7 	 1.5 	 291.525
1.7 	 1.6 	 291.525
1.7 	 1.7 	 291.525
