Vin 	 Vout 	 Ids
0 	 0 	 338.1
0 	 0.1 	 338.1
0 	 0.2 	 338.1
0 	 0.3 	 338.1
0 	 0.4 	 338.1
0 	 0.5 	 336.375
0 	 0.6 	 331.2
0 	 0.7 	 322.575
0 	 0.8 	 310.5
0 	 0.9 	 294.975
0 	 1 	 276
0 	 1.1 	 253.575
0 	 1.2 	 227.7
0 	 1.3 	 198.375
0 	 1.4 	 165.6
0 	 1.5 	 129.375
0 	 1.6 	 89.6999
0 	 1.7 	 46.5748
0.1 	 0 	 291.525
0.1 	 0.1 	 291.525
0.1 	 0.2 	 291.525
0.1 	 0.3 	 291.525
0.1 	 0.4 	 291.525
0.1 	 0.5 	 291.525
0.1 	 0.6 	 289.8
0.1 	 0.7 	 284.625
0.1 	 0.8 	 276
0.1 	 0.9 	 263.925
0.1 	 1 	 248.4
0.1 	 1.1 	 229.425
0.1 	 1.2 	 207
0.1 	 1.3 	 181.125
0.1 	 1.4 	 151.8
0.1 	 1.5 	 119.025
0.1 	 1.6 	 82.7999
0.1 	 1.7 	 43.1249
0.2 	 0 	 248.4
0.2 	 0.1 	 248.4
0.2 	 0.2 	 248.4
0.2 	 0.3 	 248.4
0.2 	 0.4 	 248.4
0.2 	 0.5 	 248.4
0.2 	 0.6 	 248.4
0.2 	 0.7 	 246.675
0.2 	 0.8 	 241.5
0.2 	 0.9 	 232.875
0.2 	 1 	 220.8
0.2 	 1.1 	 205.275
0.2 	 1.2 	 186.3
0.2 	 1.3 	 163.875
0.2 	 1.4 	 138
0.2 	 1.5 	 108.675
0.2 	 1.6 	 75.8999
0.2 	 1.7 	 39.6749
0.3 	 0 	 208.725
0.3 	 0.1 	 208.725
0.3 	 0.2 	 208.725
0.3 	 0.3 	 208.725
0.3 	 0.4 	 208.725
0.3 	 0.5 	 208.725
0.3 	 0.6 	 208.725
0.3 	 0.7 	 208.725
0.3 	 0.8 	 207
0.3 	 0.9 	 201.825
0.3 	 1 	 193.2
0.3 	 1.1 	 181.125
0.3 	 1.2 	 165.6
0.3 	 1.3 	 146.625
0.3 	 1.4 	 124.2
0.3 	 1.5 	 98.3249
0.3 	 1.6 	 68.9999
0.3 	 1.7 	 36.2249
0.4 	 0 	 172.5
0.4 	 0.1 	 172.5
0.4 	 0.2 	 172.5
0.4 	 0.3 	 172.5
0.4 	 0.4 	 172.5
0.4 	 0.5 	 172.5
0.4 	 0.6 	 172.5
0.4 	 0.7 	 172.5
0.4 	 0.8 	 172.5
0.4 	 0.9 	 170.775
0.4 	 1 	 165.6
0.4 	 1.1 	 156.975
0.4 	 1.2 	 144.9
0.4 	 1.3 	 129.375
0.4 	 1.4 	 110.4
0.4 	 1.5 	 87.9749
0.4 	 1.6 	 62.0999
0.4 	 1.7 	 32.7749
0.5 	 0 	 139.725
0.5 	 0.1 	 139.725
0.5 	 0.2 	 139.725
0.5 	 0.3 	 139.725
0.5 	 0.4 	 139.725
0.5 	 0.5 	 139.725
0.5 	 0.6 	 139.725
0.5 	 0.7 	 139.725
0.5 	 0.8 	 139.725
0.5 	 0.9 	 139.725
0.5 	 1 	 138
0.5 	 1.1 	 132.825
0.5 	 1.2 	 124.2
0.5 	 1.3 	 112.125
0.5 	 1.4 	 96.6
0.5 	 1.5 	 77.6249
0.5 	 1.6 	 55.1999
0.5 	 1.7 	 29.3249
0.6 	 0 	 110.4
0.6 	 0.1 	 110.4
0.6 	 0.2 	 110.4
0.6 	 0.3 	 110.4
0.6 	 0.4 	 110.4
0.6 	 0.5 	 110.4
0.6 	 0.6 	 110.4
0.6 	 0.7 	 110.4
0.6 	 0.8 	 110.4
0.6 	 0.9 	 110.4
0.6 	 1 	 110.4
0.6 	 1.1 	 108.675
0.6 	 1.2 	 103.5
0.6 	 1.3 	 94.875
0.6 	 1.4 	 82.8
0.6 	 1.5 	 67.2749
0.6 	 1.6 	 48.2999
0.6 	 1.7 	 25.8749
0.7 	 0 	 84.525
0.7 	 0.1 	 84.525
0.7 	 0.2 	 84.525
0.7 	 0.3 	 84.525
0.7 	 0.4 	 84.525
0.7 	 0.5 	 84.525
0.7 	 0.6 	 84.525
0.7 	 0.7 	 84.525
0.7 	 0.8 	 84.525
0.7 	 0.9 	 84.525
0.7 	 1 	 84.525
0.7 	 1.1 	 84.525
0.7 	 1.2 	 82.8
0.7 	 1.3 	 77.625
0.7 	 1.4 	 69
0.7 	 1.5 	 56.925
0.7 	 1.6 	 41.3999
0.7 	 1.7 	 22.4249
0.8 	 0 	 62.1
0.8 	 0.1 	 62.1
0.8 	 0.2 	 62.1
0.8 	 0.3 	 62.1
0.8 	 0.4 	 62.1
0.8 	 0.5 	 62.1
0.8 	 0.6 	 62.1
0.8 	 0.7 	 62.1
0.8 	 0.8 	 62.1
0.8 	 0.9 	 62.1
0.8 	 1 	 62.1
0.8 	 1.1 	 62.1
0.8 	 1.2 	 62.1
0.8 	 1.3 	 60.375
0.8 	 1.4 	 55.2
0.8 	 1.5 	 46.575
0.8 	 1.6 	 34.5
0.8 	 1.7 	 18.9749
0.9 	 0 	 43.125
0.9 	 0.1 	 43.125
0.9 	 0.2 	 43.125
0.9 	 0.3 	 43.125
0.9 	 0.4 	 43.125
0.9 	 0.5 	 43.125
0.9 	 0.6 	 43.125
0.9 	 0.7 	 43.125
0.9 	 0.8 	 43.125
0.9 	 0.9 	 43.125
0.9 	 1 	 43.125
0.9 	 1.1 	 43.125
0.9 	 1.2 	 43.125
0.9 	 1.3 	 43.125
0.9 	 1.4 	 41.4
0.9 	 1.5 	 36.225
0.9 	 1.6 	 27.6
0.9 	 1.7 	 15.5249
1 	 0 	 27.6
1 	 0.1 	 27.6
1 	 0.2 	 27.6
1 	 0.3 	 27.6
1 	 0.4 	 27.6
1 	 0.5 	 27.6
1 	 0.6 	 27.6
1 	 0.7 	 27.6
1 	 0.8 	 27.6
1 	 0.9 	 27.6
1 	 1 	 27.6
1 	 1.1 	 27.6
1 	 1.2 	 27.6
1 	 1.3 	 27.6
1 	 1.4 	 27.6
1 	 1.5 	 25.875
1 	 1.6 	 20.7
1 	 1.7 	 12.075
1.1 	 0 	 15.525
1.1 	 0.1 	 15.525
1.1 	 0.2 	 15.525
1.1 	 0.3 	 15.525
1.1 	 0.4 	 15.525
1.1 	 0.5 	 15.525
1.1 	 0.6 	 15.525
1.1 	 0.7 	 15.525
1.1 	 0.8 	 15.525
1.1 	 0.9 	 15.525
1.1 	 1 	 15.525
1.1 	 1.1 	 15.525
1.1 	 1.2 	 15.525
1.1 	 1.3 	 15.525
1.1 	 1.4 	 15.525
1.1 	 1.5 	 15.525
1.1 	 1.6 	 13.8
1.1 	 1.7 	 8.62497
1.2 	 0 	 6.89998
1.2 	 0.1 	 6.89998
1.2 	 0.2 	 6.89998
1.2 	 0.3 	 6.89998
1.2 	 0.4 	 6.89998
1.2 	 0.5 	 6.89998
1.2 	 0.6 	 6.89998
1.2 	 0.7 	 6.89998
1.2 	 0.8 	 6.89998
1.2 	 0.9 	 6.89998
1.2 	 1 	 6.89998
1.2 	 1.1 	 6.89998
1.2 	 1.2 	 6.89998
1.2 	 1.3 	 6.89998
1.2 	 1.4 	 6.89998
1.2 	 1.5 	 6.89998
1.2 	 1.6 	 6.89998
1.2 	 1.7 	 5.17498
1.3 	 0 	 1.72499
1.3 	 0.1 	 1.72499
1.3 	 0.2 	 1.72499
1.3 	 0.3 	 1.72499
1.3 	 0.4 	 1.72499
1.3 	 0.5 	 1.72499
1.3 	 0.6 	 1.72499
1.3 	 0.7 	 1.72499
1.3 	 0.8 	 1.72499
1.3 	 0.9 	 1.72499
1.3 	 1 	 1.72499
1.3 	 1.1 	 1.72499
1.3 	 1.2 	 1.72499
1.3 	 1.3 	 1.72499
1.3 	 1.4 	 1.72499
1.3 	 1.5 	 1.72499
1.3 	 1.6 	 1.72499
1.3 	 1.7 	 1.72499
1.4 	 0 	 0
1.4 	 0.1 	 0
1.4 	 0.2 	 0
1.4 	 0.3 	 0
1.4 	 0.4 	 0
1.4 	 0.5 	 0
1.4 	 0.6 	 0
1.4 	 0.7 	 0
1.4 	 0.8 	 0
1.4 	 0.9 	 0
1.4 	 1 	 0
1.4 	 1.1 	 0
1.4 	 1.2 	 0
1.4 	 1.3 	 0
1.4 	 1.4 	 0
1.4 	 1.5 	 0
1.4 	 1.6 	 0
1.4 	 1.7 	 0
1.5 	 0 	 0
1.5 	 0.1 	 0
1.5 	 0.2 	 0
1.5 	 0.3 	 0
1.5 	 0.4 	 0
1.5 	 0.5 	 0
1.5 	 0.6 	 0
1.5 	 0.7 	 0
1.5 	 0.8 	 0
1.5 	 0.9 	 0
1.5 	 1 	 0
1.5 	 1.1 	 0
1.5 	 1.2 	 0
1.5 	 1.3 	 0
1.5 	 1.4 	 0
1.5 	 1.5 	 0
1.5 	 1.6 	 0
1.5 	 1.7 	 0
1.6 	 0 	 0
1.6 	 0.1 	 0
1.6 	 0.2 	 0
1.6 	 0.3 	 0
1.6 	 0.4 	 0
1.6 	 0.5 	 0
1.6 	 0.6 	 0
1.6 	 0.7 	 0
1.6 	 0.8 	 0
1.6 	 0.9 	 0
1.6 	 1 	 0
1.6 	 1.1 	 0
1.6 	 1.2 	 0
1.6 	 1.3 	 0
1.6 	 1.4 	 0
1.6 	 1.5 	 0
1.6 	 1.6 	 0
1.6 	 1.7 	 0
1.7 	 0 	 0
1.7 	 0.1 	 0
1.7 	 0.2 	 0
1.7 	 0.3 	 0
1.7 	 0.4 	 0
1.7 	 0.5 	 0
1.7 	 0.6 	 0
1.7 	 0.7 	 0
1.7 	 0.8 	 0
1.7 	 0.9 	 0
1.7 	 1 	 0
1.7 	 1.1 	 0
1.7 	 1.2 	 0
1.7 	 1.3 	 0
1.7 	 1.4 	 0
1.7 	 1.5 	 0
1.7 	 1.6 	 0
1.7 	 1.7 	 0
